RTDS Simulation, 0,1999
8,8A,0D
1,BRK_6_1_I_A,,,KA,2.41365E-7,-0.00789996,0,0,65535,1.0,1.0,P
2,BRK_6_2_I_A,,,KA,2.15104E-7,-0.00704412,0,0,65535,1.0,1.0,P
3,BRK_6_1_I_B,,,KA,2.41334E-7,-0.00790009,0,0,65535,1.0,1.0,P
4,BRK_6_2_I_B,,,KA,2.15083E-7,-0.00704496,0,0,65535,1.0,1.0,P
5,BRK_6_1_I_C,,,KA,2.41344E-7,-0.00790028,0,0,65535,1.0,1.0,P
6,BRK_6_2_I_C,,,KA,2.15114E-7,-0.00703635,0,0,65535,1.0,1.0,P
7,flt_enabled,,,,0.0,0.0,0,0,65535,1.0,1.0,P
8,relay_protection,,,,0.0,0.0,0,0,65535,1.0,1.0,P
50.0
1
1041.67,1042
30/11/2024,12:57:42.655000
30/11/2024,12:57:42.854680
ASCII
1
1,0,11482,52259,45938,22421,40781,23519,0,0
2,960,11556,51567,40316,27816,46329,18817,0,0
3,1920,13542,49174,34010,33656,50649,15371,0,0
4,2880,17260,45297,27587,39413,53352,13491,0,0
5,3840,22376,40285,21629,44567,54194,13349,0,0
6,4800,28426,34591,16673,48654,53099,14957,0,0
7,5760,34866,28729,13166,51304,50166,18169,0,0
8,6720,41113,23229,11425,52278,45659,22696,0,0
9,7680,46604,18586,11607,51488,39986,28128,0,0
10,8640,50844,15219,13695,49005,33658,33977,0,0
11,9600,53448,13433,17502,45054,27247,39713,0,0
12,10560,54183,13389,22683,39992,21331,44818,0,0
13,11520,52982,15091,28771,34274,16444,48833,0,0
14,12480,49953,18386,35216,28418,13029,51394,0,0
15,13440,45370,22975,41437,22952,11392,52271,0,0
16,14400,39646,28444,46871,18369,11682,51384,0,0
17,15360,33299,34300,51029,15084,13872,48813,0,0
18,16320,26901,40015,53534,13392,17766,44790,0,0
19,17280,21029,45072,54162,13446,23010,39679,0,0
20,18240,16215,49014,52854,15242,29133,33941,0,0
21,19200,12891,51487,49730,18618,35580,28094,0,0
22,20160,11359,52266,45071,23268,41771,22665,0,0
23,21120,11757,51282,39298,28773,47146,18145,0,0
24,22080,14049,48623,32932,34636,51221,14942,0,0
25,23040,18027,44529,26547,40327,53626,13345,0,0
26,24000,23333,39370,20720,45334,54146,13497,0,0
27,24960,29488,33611,15977,49204,52733,15387,0,0
28,25920,35936,27773,12747,51587,49515,18841,0,0
29,26880,42096,22383,11320,52269,44782,23550,0,0
30,27840,47410,17926,11825,51187,38962,29088,0,0
31,28800,51400,14805,14218,48441,32579,34955,0,0
32,29760,53704,13303,18281,44277,26211,40620,0,0
33,30720,54116,13554,23649,39071,20432,45574,0,0
34,31680,52598,15536,29836,33293,15763,49369,0,0
35,32640,49287,19070,36284,27466,12626,51661,0,0
36,33600,44482,23838,42411,22114,11305,52245,0,0
37,34560,38617,29407,47664,17722,11918,51068,0,0
38,35520,32220,35277,51569,14685,14411,48235,0,0
39,36480,25870,40917,53773,13278,18557,44003,0,0
40,37440,20140,45817,54077,13627,23984,38753,0,0
41,38400,15547,49536,52454,15702,30200,32960,0,0
42,39360,12506,51738,49050,19314,36646,27146,0,0
43,40320,11291,52224,44173,24139,42738,21836,0,0
44,41280,12011,50950,38263,29739,47927,17510,0,0
45,42240,14603,48032,31853,35611,51745,14558,0,0
46,43200,18831,43731,25522,41223,53847,13247,0,0
47,44160,24315,38438,19842,46069,54043,13695,0,0
48,45120,30558,32630,15324,49712,52316,15861,0,0
49,46080,36999,26830,12378,51822,48821,19550,0,0
50,47040,43054,21563,11269,52210,43874,24429,0,0
51,48000,48178,17304,12097,50840,37922,30057,0,0
52,48960,51908,14437,14787,47836,31501,35927,0,0
53,49920,53908,13222,19097,43469,25192,41509,0,0
54,50880,53996,13767,24638,38134,19564,46298,0,0
55,51840,52165,16025,30908,32311,15124,49863,0,0
56,52800,48580,19790,37343,26527,12275,51881,0,0
57,53760,43565,24723,43362,21304,11272,52171,0,0
58,54720,37572,30379,48420,17113,12207,50706,0,0
59,55680,31143,36247,52062,14332,14995,47618,0,0
60,56640,24857,41798,53959,13213,19385,43187,0,0
61,57600,19283,46530,53939,13856,24980,37811,0,0
62,58560,14923,50016,52004,16204,31274,31978,0,0
63,59520,12171,51942,48330,20045,37701,26212,0,0
64,60480,11276,52133,43246,25031,43679,21035,0,0
65,61440,12317,50573,37214,30713,48670,16914,0,0
66,62400,15202,47402,30777,36578,52222,14221,0,0
67,63360,19670,42906,24515,42096,54015,13199,0,0
68,64320,25317,37492,18995,46770,53887,13940,0,0
69,65280,31634,31648,14715,50177,51850,16377,0,0
70,66240,38050,25902,12061,52009,48087,20291,0,0
71,67200,43987,20771,11272,52102,42938,25328,0,0
72,68160,48908,16721,12421,50448,36869,31033,0,0
73,69120,52369,14115,15402,47194,30426,36892,0,0
74,70080,54057,13190,19948,42635,24192,42375,0,0
75,71040,53822,14028,25647,37183,18729,46988,0,0
76,72000,51682,16555,31985,31330,14530,50313,0,0
77,72960,47833,20542,38391,25604,11975,52052,0,0
78,73920,42620,25629,44285,20522,11294,52047,0,0
79,74880,36515,31357,49136,16543,12548,50298,0,0
80,75840,30069,37209,52506,14025,15625,46963,0,0
81,76800,23864,42656,54091,13197,20246,42344,0,0
82,77760,18460,47208,53747,14133,25995,36857,0,0
83,78720,14344,50452,51505,16749,32352,30998,0,0
84,79680,11889,52097,47569,20808,38744,25295,0,0
85,80640,11315,51993,42293,25943,44593,20264,0,0
86,81600,12675,50150,36154,31693,49372,16358,0,0
87,82560,15846,46735,29705,37536,52650,13930,0,0
88,83520,20542,42056,23529,42947,54129,13200,0,0
89,84480,26338,36534,18184,47436,53677,14232,0,0
90,85440,32712,30669,14151,50598,51335,16935,0,0
91,86400,39088,24990,11796,52148,47314,21064,0,0
92,87360,44891,20010,11330,51946,41977,26246,0,0
93,88320,49596,16178,12796,50010,35805,32013,0,0
94,89280,52779,13840,16061,46515,29357,37846,0,0
95,90240,54153,13207,20830,41776,23213,43217,0,0
96,91200,53594,14337,26674,36222,17929,47641,0,0
97,92160,51152,17127,33064,30353,13982,50719,0,0
98,93120,47047,21325,39424,24699,11728,52174,0,0
99,94080,41650,26553,45179,19771,11369,51874,0,0
100,95040,35449,32338,49811,16014,12940,49846,0,0
101,96000,29003,38159,52900,13766,16298,46273,0,0
102,96960,22894,43489,54169,13231,21139,41477,0,0
103,97920,17673,47849,53502,14457,27027,35892,0,0
104,98880,13812,50843,50959,17333,33431,30022,0,0
105,99840,11659,52202,46771,21600,39772,24396,0,0
106,100800,11409,51804,41316,26873,45477,19523,0,0
107,101760,13084,49683,35085,32674,50033,15843,0,0
108,102720,16533,46033,28641,38482,53027,13687,0,0
109,103680,21445,41181,22566,43771,54189,13250,0,0
110,104640,27376,35566,17409,48064,53415,14572,0,0
111,105600,33790,29695,13635,50974,50773,17533,0,0
112,106560,40110,24099,11584,52238,46504,21866,0,0
113,107520,45764,19281,11441,51741,40992,27180,0,0
114,108480,50242,15677,13221,49529,34734,32995,0,0
115,109440,53140,13613,16761,45801,28296,38787,0,0
116,110400,54195,13274,21743,40894,22259,44032,0,0
117,111360,53314,14691,27716,35251,17167,48257,0,0
118,112320,50575,17737,34142,29381,13481,51080,0,0
119,113280,46225,22136,40440,23814,11533,52247,0,0
120,114240,40658,27492,46042,19053,11499,51653,0,0
121,115200,34376,33320,50442,15527,13382,49350,0,0
122,116160,27946,39095,53243,13555,17012,45548,0,0
123,117120,21948,44295,54192,13314,22061,40588,0,0
124,118080,16924,48451,53204,14827,28074,34919,0,0
125,119040,13327,51188,50367,17957,34508,29053,0,0
126,120000,11482,52259,45938,22421,40782,23519,0,0
127,120960,11556,51566,40316,27816,46329,18817,0,0
128,121920,13542,49174,34010,33656,50649,15370,0,0
129,122880,17260,45296,27588,39413,53353,13491,0,0
130,123840,22376,40285,21629,44568,54195,13349,0,0
131,124800,28426,34591,16673,48654,53100,14957,0,0
132,125760,34866,28729,13166,51304,50166,18169,0,0
133,126720,41113,23228,11425,52278,45659,22695,0,0
134,127680,46604,18585,11607,51488,39986,28128,0,0
135,128640,50844,15219,13695,49005,33658,33977,0,0
136,129600,53448,13433,17502,45054,27247,39713,0,0
137,130560,54183,13389,22683,39992,21331,44818,0,0
138,131520,52982,15091,28771,34274,16445,48833,0,0
139,132480,49953,18386,35216,28418,13029,51394,0,0
140,133440,45370,22975,41437,22952,11392,52271,0,0
141,134400,39646,28444,46871,18369,11682,51384,0,0
142,135360,33299,34300,51029,15084,13873,48813,0,0
143,136320,26901,40015,53534,13392,17766,44790,0,0
144,137280,21029,45072,54162,13446,23010,39679,0,0
145,138240,16214,49014,52855,15242,29133,33941,0,0
146,139200,12891,51487,49730,18618,35580,28094,0,0
147,140160,11359,52266,45071,23268,41771,22665,0,0
148,141120,11757,51282,39298,28773,47146,18145,0,0
149,142080,14049,48623,32932,34636,51221,14942,0,0
150,143040,18027,44529,26547,40327,53626,13345,0,0
151,144000,23333,39370,20720,45334,54146,13497,0,0
152,144960,29488,33611,15978,49204,52733,15387,0,0
153,145920,35936,27773,12747,51587,49515,18842,0,0
154,146880,42096,22383,11320,52269,44782,23550,0,0
155,147840,47410,17926,11826,51187,38962,29088,0,0
156,148800,51399,14806,14218,48441,32579,34955,0,0
157,149760,53704,13303,18282,44277,26211,40621,0,0
158,150720,54116,13554,23649,39071,20432,45574,0,0
159,151680,52598,15536,29836,33294,15763,49369,0,0
160,152640,49287,19071,36284,27466,12627,51661,0,0
161,153600,44482,23838,42411,22115,11305,52245,0,0
162,154560,38616,29407,47665,17722,11919,51068,0,0
163,155520,32220,35277,51569,14685,14411,48235,0,0
164,156480,25870,40917,53773,13278,18558,44003,0,0
165,157440,20140,45817,54077,13627,23984,38753,0,0
166,158400,15547,49536,52454,15702,30200,32960,0,0
167,159360,12506,51738,49050,19314,36646,27146,0,0
168,160320,11290,52224,44173,24139,42738,21836,0,0
169,161280,12011,50950,38263,29739,47927,17510,0,0
170,162240,14602,48032,31853,35611,51745,14558,0,0
171,163200,18831,43732,25522,41223,53847,13247,0,0
172,164160,24314,38438,19842,46069,54044,13694,0,0
173,165120,30558,32630,15324,49712,52316,15860,0,0
174,166080,36998,26830,12378,51823,48821,19550,0,0
175,167040,43054,21563,11269,52210,43874,24429,0,0
176,168000,48178,17304,12097,50841,37922,30057,0,0
177,168960,51908,14437,14787,47837,31501,35927,0,0
178,169920,53907,13222,19097,43470,25192,41509,0,0
179,170880,53996,13767,24638,38134,19564,46298,0,0
180,171840,52165,16025,30908,32312,15125,49863,0,0
181,172800,48580,19790,37343,26528,12275,51881,0,0
182,173760,43564,24723,43362,21304,11273,52171,0,0
183,174720,37572,30379,48420,17113,12208,50705,0,0
184,175680,31143,36247,52062,14332,14996,47618,0,0
185,176640,24857,41798,53959,13213,19385,43186,0,0
186,177600,19283,46530,53939,13857,24980,37811,0,0
187,178560,14923,50016,52004,16205,31275,31978,0,0
188,179520,12171,51941,48329,20045,37701,26212,0,0
189,180480,11275,52133,43246,25031,43680,21035,0,0
190,181440,12317,50573,37214,30714,48670,16914,0,0
191,182400,15202,47402,30776,36579,52222,14221,0,0
192,183360,19670,42906,24515,42097,54015,13199,0,0
193,184320,25317,37492,18995,46770,53887,13940,0,0
194,185280,31634,31648,14715,50177,51850,16377,0,0
195,186240,38050,25901,12061,52010,48087,20291,0,0
196,187200,43986,20771,11272,52103,42939,25328,0,0
197,188160,48907,16720,12421,50448,36869,31033,0,0
198,189120,52368,14115,15402,47194,30426,36892,0,0
199,190080,54057,13190,19948,42636,24192,42375,0,0
200,191040,53821,14028,25647,37184,18729,46988,0,0
201,192000,51682,16555,31985,31331,14530,50313,0,0
202,192960,47832,20542,38391,25604,11975,52052,0,0
203,193920,42620,25629,44285,20522,11294,52047,0,0
204,194880,36515,31357,49136,16543,12548,50298,0,0
205,195840,30069,37208,52506,14026,15625,46963,0,0
206,196800,23864,42656,54090,13198,20246,42344,0,0
207,197760,18460,47207,53747,14133,25995,36857,0,0
208,198720,14344,50451,51505,16749,32352,30998,0,0
209,199680,11158,52993,47652,20749,39392,24457,0,0
210,200640,9971,53354,41937,26506,46294,18340,0,0
211,201600,11390,51416,34804,33261,52007,13523,0,0
212,202560,15304,47375,27142,40368,55755,10458,0,0
213,203520,21104,41365,19851,47078,57245,9758,0,0
214,204480,28327,34200,13646,52512,56225,11490,0,0
215,205440,36280,26683,9212,56049,52705,15470,0,0
216,206400,44048,19472,7077,57326,47072,21404,0,0
217,207360,50850,13339,7491,56170,39855,28694,0,0
218,208320,56035,9024,10415,52580,31746,36598,0,0
219,209280,59025,6959,15617,46906,23554,44335,0,0
220,210240,59468,7346,22632,39702,16096,51152,0,0
221,211200,57328,10256,30763,31605,10105,56338,0,0
222,212160,52763,15436,39250,23410,6184,59352,0,0
223,213120,46160,22395,47287,15925,4751,59877,0,0
224,214080,38156,30513,54078,9877,5965,57806,0,0
225,215040,29499,39023,58956,5864,9746,53309,0,0
226,216000,20999,47101,61438,4316,15764,46780,0,0
227,216960,13476,53970,61265,5414,23461,38813,0,0
228,217920,7659,58971,58419,9071,32125,30155,0,0
229,218880,4104,61600,53154,14978,40944,21620,0,0
230,219840,3163,61585,45953,22597,49086,14018,0,0
231,220800,4945,58914,37474,31218,55783,8069,0,0
232,221760,9291,53816,28508,40041,60402,4344,0,0
233,222720,15805,46754,19888,48248,62507,3201,0,0
234,223680,23896,38377,12410,55070,61893,4756,0,0
235,224640,32817,29453,6769,59873,58612,8877,0,0
236,225600,41752,20802,3486,62210,52959,15191,0,0
237,226560,49883,13216,2868,61862,45446,23125,0,0
238,227520,56466,7393,4973,58851,36757,31958,0,0
239,228480,60897,3866,9618,53446,27680,40889,0,0
240,229440,62771,2963,16385,46134,19040,49104,0,0
241,230400,61910,4774,24662,37571,11624,55855,0,0
242,231360,58384,9141,33704,28532,6108,60525,0,0
243,232320,52508,15677,42692,19837,2998,62683,0,0
244,233280,44808,23796,50806,12276,2585,62124,0,0
245,234240,35977,32765,57309,6541,4913,58890,0,0
246,235200,26817,41773,61603,3159,9780,53264,0,0
247,236160,18160,49999,63292,2446,16750,45752,0,0
248,237120,10795,56692,62213,4475,25194,37029,0,0
249,238080,5396,61238,58460,9071,34346,27889,0,0
250,239040,2458,63219,52369,15820,43376,19160,0,0
251,240000,2253,62448,44489,24113,51461,11639,0,0
252,240960,4802,58991,35535,33198,57865,6012,0,0
253,241920,9877,53159,26318,42252,62005,2791,0,0
254,242880,17020,45479,17676,50452,63504,2272,0,0
255,243840,25584,36646,10390,57055,62225,4502,0,0
256,244800,34795,27458,5121,61464,58282,9283,0,0
257,245760,43820,18745,2345,63278,52032,16181,0,0
258,246720,51844,11295,2314,62333,44038,24575,0,0
259,247680,58143,5781,5032,58713,35021,33709,0,0
260,248640,62147,2699,10255,52743,25794,42759,0,0
261,249600,63495,2331,17513,44961,17188,50909,0,0
262,250560,62062,4710,26154,36065,9981,57424,0,0
263,251520,57975,9626,35399,26856,4823,61715,0,0
264,252480,51600,16639,44416,18165,2182,63393,0,0
265,253440,43509,25118,52389,10776,2301,62302,0,0
266,254400,34431,34301,58598,5358,5171,58537,0,0
267,255360,25185,43358,62479,2404,10537,52434,0,0
268,256320,16607,51471,63678,2183,17917,44541,0,0
269,257280,9472,57906,62083,4721,26647,35570,0,0
270,258240,4429,62079,57836,9790,35938,26329,0,0
271,259200,1935,63608,51317,16937,44950,17654,0,0
272,260160,2218,62354,43116,25515,52869,10331,0,0
273,261120,5255,58427,33971,34751,58976,5023,0,0
274,262080,10773,52181,24709,43811,62719,2211,0,0
275,263040,18274,44177,16168,51875,63758,2150,0,0
276,264000,27081,35140,9118,58216,61999,4848,0,0
277,264960,36401,25883,4197,62260,57600,10061,0,0
278,265920,45392,17242,1850,63641,50955,17321,0,0
279,266880,53242,9996,2289,62234,42665,25973,0,0
280,267840,59244,4799,5476,58164,33476,35238,0,0
281,268800,62855,2121,11125,51797,24216,44282,0,0
282,269760,63748,2205,18728,43706,15720,52288,0,0
283,270720,61841,5045,27600,34618,8755,58535,0,0
284,271680,57304,10387,36943,25352,3950,62458,0,0
285,272640,50543,17752,45914,16744,1741,63701,0,0
286,273600,42168,26477,53702,9570,2329,62149,0,0
287,274560,32932,35776,59605,4479,5664,57940,0,0
288,275520,23669,44811,63086,1934,11446,51451,0,0
289,276480,15215,52766,63830,2165,19157,43265,0,0
290,277440,8334,58922,61767,5156,28101,34119,0,0
291,278400,3650,62720,57081,10638,37471,24840,0,0
292,279360,1587,63816,50194,18119,46422,16264,0,0
293,280320,2334,62109,41725,26924,54143,9167,0,0
294,281280,5824,57750,32439,36260,59938,4191,0,0
295,282240,11745,51131,23174,45284,63281,1787,0,0
296,283200,19563,42849,14767,53181,63870,2172,0,0
297,284160,28572,33650,7977,59238,61649,5315,0,0
298,285120,37962,24364,3418,62906,56818,10933,0,0
299,286080,46883,15829,1502,63854,49812,18521,0,0
300,287040,54531,8814,2404,61995,41261,27394,0,0
301,288000,60216,3954,6044,57494,31936,36754,0,0
302,288960,63422,1688,12094,50757,22679,45756,0,0
303,289920,63860,2222,20011,42388,14324,53589,0,0
304,290880,61488,5511,29082,33143,7627,59545,0,0
305,291840,56518,11258,38488,23854,3191,63085,0,0
306,292800,49398,18949,47380,15359,1420,63888,0,0
307,293760,40767,27891,54957,8425,2475,61880,0,0
308,294720,31404,37277,60533,3680,6263,57239,0,0
309,295680,22154,46260,63603,1553,12444,50382,0,0
310,296640,13852,54031,63888,2239,20462,41927,0,0
311,297600,7248,59886,61360,5677,29594,32634,0,0
312,298560,2941,63295,56246,11561,39016,23342,0,0
313,299520,1319,63948,49006,19360,47878,14891,0,0
314,300480,2533,61785,40291,28371,55378,8044,0,0
315,301440,6473,56999,30889,37783,60839,3420,0,0
316,302400,12786,50020,21648,46745,63767,1438,0,0
317,303360,20902,41477,13402,54449,63895,2278,0,0
318,304320,30091,32139,6896,60198,61211,5867,0,0
319,305280,39523,22850,2719,63472,55955,11882,0,0
320,306240,48347,14447,1248,63974,48601,19782,0,0
321,307200,55766,7689,2618,61658,39811,28855,0,0
322,308160,61110,3187,6708,56731,30378,38284,0,0
323,309120,63895,1349,13148,49635,21152,47217,0,0
324,310080,63869,2342,21360,41010,12967,54848,0,0
325,311040,61032,6078,30603,31632,6562,60488,0,0
326,312000,55638,12223,40043,22348,2516,63627,0,0
327,312960,48174,20223,48829,13995,1196,63979,0,0
328,313920,39310,29357,56167,7328,2722,61512,0,0
329,314880,29848,38802,61394,2949,6959,56444,0,0
330,315840,20640,47706,64036,1257,13526,49233,0,0
331,316800,12518,55265,63853,2404,21831,40528,0,0
332,317760,6216,60795,60860,6290,31126,31113,0,0
333,318720,2305,63796,55326,12565,40572,21838,0,0
334,319680,1138,63995,47749,20665,49315,13540,0,0
335,320640,2823,61372,38812,29860,56567,6968,0,0
336,321600,7209,56163,29320,39320,61671,2718,0,0
337,322560,13902,48837,20132,48192,64166,1174,0,0
338,323520,22297,40052,12076,55674,63825,2478,0,0
339,324480,31640,30602,5880,61090,60678,6512,0,0
340,325440,41085,21339,2106,63950,55006,12915,0,0
341,326400,49782,13099,1093,63995,47322,21110,0,0
342,327360,56943,6626,2936,61219,38316,30358,0,0
343,328320,61923,2506,7469,55871,28803,39825,0,0
344,329280,64270,1111,14285,48432,19640,48658,0,0
345,330240,63771,2569,22770,39573,11655,56058,0,0
346,331200,60471,6751,32157,30091,5569,61356,0,0
347,332160,54664,13279,41601,20844,1932,64074,0,0
348,333120,46875,21567,50249,12664,1075,63965,0,0
349,334080,37806,30868,57319,6292,3075,61037,0,0
350,335040,28273,40341,62173,2303,7754,55552,0,0
351,336000,19139,49134,64372,1058,14691,48004,0,0
352,336960,11228,56450,63714,2673,23260,39073,0,0
353,337920,5254,61630,60259,7002,32689,29565,0,0
354,338880,1759,64204,54317,13656,42127,20338,0,0
355,339840,1058,63939,46424,22037,50721,12224,0,0
356,340800,3216,60856,37290,31387,57696,5957,0,0
357,341760,8040,55234,27740,40864,62420,2104,0,0
358,342720,15096,47578,18637,49612,64467,1013,0,0
359,343680,23747,38577,10801,56842,63650,2784,0,0
360,344640,33213,29045,4942,61900,60042,7259,0,0
361,345600,42640,19841,1589,64328,53968,14035,0,0
362,346560,51177,11796,1045,63906,45974,22502,0,0
363,347520,58052,5637,3362,60670,36782,31896,0,0
364,348480,62644,1920,8330,54912,27221,41369,0,0
365,349440,64539,982,15503,47150,18154,50068,0,0
366,350400,63563,2910,24234,38084,10399,57205,0,0
367,351360,59804,7529,33735,28531,4658,62137,0,0
368,352320,53599,14426,43150,19354,1449,64417,0,0
369,353280,45509,22978,51627,11380,1064,63838,0,0
370,354240,36262,32414,58401,5331,3537,60451,0,0
371,355200,26693,41882,62861,1753,8647,54561,0,0
372,356160,17666,50529,64602,970,15934,46698,0,0
373,357120,9995,57573,63466,3054,24741,37570,0,0
374,358080,4375,62377,59555,7818,34273,28002,0,0
375,359040,1313,64508,53221,14834,43669,18857,0,0
376,360000,1086,63771,45034,23469,52082,10961,0,0
377,360960,3717,60232,35734,32944,58752,5026,0,0
378,361920,8968,54209,26159,42404,63075,1589,0,0
379,362880,16366,46245,17173,50995,64661,963,0,0
380,363840,25245,37059,9589,57942,63365,3203,0,0
381,364800,34803,27478,4091,62617,59304,8110,0,0
382,365760,44177,18367,1177,64596,52843,15240,0,0
383,366720,52522,10550,1110,63701,44565,23952,0,0
384,367680,59083,4732,3897,60011,35216,33460,0,0
385,368640,63267,1438,9287,53858,25641,42905,0,0
386,369600,64697,968,16796,45796,16703,51435,0,0
387,370560,63242,3365,25745,36554,9209,58281,0,0
388,371520,59033,8413,35327,26963,3837,62822,0,0
389,372480,52448,15657,44678,17891,1072,64649,0,0
390,373440,44082,24445,52953,10156,1165,63595,0,0
