RTDS Simulation, 0,1999
8,8A,0D
1,BRK_6_1_I_A,,,KA,2.04672E-7,-0.00670265,0,0,65535,1.0,1.0,P
2,BRK_6_2_I_A,,,KA,1.80966E-7,-0.005926,0,0,65535,1.0,1.0,P
3,BRK_6_1_I_B,,,KA,2.04678E-7,-0.006703,0,0,65535,1.0,1.0,P
4,BRK_6_2_I_B,,,KA,1.80963E-7,-0.00592627,0,0,65535,1.0,1.0,P
5,BRK_6_1_I_C,,,KA,2.0467E-7,-0.00670118,0,0,65535,1.0,1.0,P
6,BRK_6_2_I_C,,,KA,1.80954E-7,-0.00592484,0,0,65535,1.0,1.0,P
7,flt_enabled,,,,0.0,0.0,0,0,65535,1.0,1.0,P
8,relay_protection,,,,0.0,0.0,0,0,65535,1.0,1.0,P
50.0
1
1041.67,1042
30/11/2024,12:32:48.669000
30/11/2024,12:32:48.868680
ASCII
1
1,0,63187,1366,8722,53876,26330,42990,0,0
2,960,64834,916,16125,45783,17279,51533,0,0
3,1920,63586,3339,25029,36513,9623,58380,0,0
4,2880,59553,8417,34631,26902,4054,62913,0,0
5,3840,53101,15692,44062,17819,1075,64722,0,0
6,4800,44811,24506,52472,10082,954,63644,0,0
7,5760,35432,34065,59102,4391,3703,59776,0,0
8,6720,25811,43505,63353,1260,9073,53467,0,0
9,7680,16815,51974,64842,970,16580,45287,0,0
10,8640,9258,58708,63433,3549,25547,35973,0,0
11,9600,3821,63099,59254,8764,35163,26367,0,0
12,10560,995,64750,52682,16144,44561,17335,0,0
13,11520,1036,63512,44309,25023,52893,9694,0,0
14,12480,3939,59497,34893,34600,59406,4132,0,0
15,13440,9444,53066,25283,44010,63513,1152,0,0
16,14400,17052,44801,16346,52403,64842,1024,0,0
17,15360,26078,35448,8889,59023,63273,3758,0,0
18,16320,35707,25850,3585,63270,58948,9109,0,0
19,17280,45069,16874,914,64763,52257,16593,0,0
20,18240,53320,9330,1116,63365,43804,25534,0,0
21,19200,59714,3900,4173,59204,34352,35127,0,0
22,20160,63674,1074,9811,52653,24755,44504,0,0
23,21120,64843,1106,17518,44306,15878,52820,0,0
24,22080,63114,3995,26601,34914,8523,59323,0,0
25,23040,58645,9479,36239,25327,3354,63427,0,0
26,24000,51837,17064,45562,16408,838,64760,0,0
27,24960,43307,26065,53729,8964,1202,63204,0,0
28,25920,33823,35669,60002,3666,4413,58896,0,0
29,26880,24241,45010,63815,994,10181,52228,0,0
30,27840,15428,53244,64823,1187,17987,43799,0,0
31,28800,8177,59629,62936,4229,27125,34372,0,0
32,29760,3145,63587,58323,9846,36770,24797,0,0
33,30720,785,64761,51401,17530,46052,15938,0,0
34,31680,1310,63045,42795,26588,54133,8595,0,0
35,32640,4674,58594,33282,36203,60283,3432,0,0
36,33600,10572,51810,23720,45505,63948,913,0,0
37,34560,18472,43304,14972,53657,64795,1268,0,0
38,35520,27662,33845,7828,59921,62750,4463,0,0
39,36480,37311,24286,2934,63733,57995,10211,0,0
40,37440,46549,15490,730,64747,50960,17993,0,0
41,38400,54542,8252,1417,62872,42280,27106,0,0
42,39360,60568,3224,4932,58279,32739,36728,0,0
43,40320,64083,861,10958,51380,23198,45991,0,0
44,41280,64769,1377,18951,42798,14518,54057,0,0
45,42240,62565,4724,28190,33309,7483,60200,0,0
46,43200,57670,10601,37841,23768,2728,63863,0,0
47,44160,50524,18477,47032,15038,682,64718,0,0
48,45120,41774,27642,54934,7905,1530,62685,0,0
49,46080,32209,37268,60833,3015,5195,57949,0,0
50,47040,22692,46486,64198,808,11348,50937,0,0
51,48000,14083,54464,64723,1484,19432,42282,0,0
52,48960,7158,60483,62361,4982,28718,32765,0,0
53,49920,2543,63997,57327,10987,38368,23245,0,0
54,50880,655,64691,50073,18956,47510,14582,0,0
55,51840,1664,62501,41254,28171,55320,7557,0,0
56,52800,5480,57625,31668,37799,61092,2804,0,0
57,53760,11757,50503,22178,46971,64305,754,0,0
58,54720,19930,41778,13642,54860,64668,1591,0,0
59,55680,29260,32237,6830,60752,62150,5240,0,0
60,56640,38906,22741,2357,64117,56977,11371,0,0
61,57600,47996,14148,628,64650,49616,19431,0,0
62,58560,55711,7233,1798,62304,40731,28693,0,0
63,59520,61353,2622,5762,57288,31125,38321,0,0
64,60480,64413,729,12162,50058,21665,47445,0,0
65,61440,64615,1726,20420,41264,13203,55242,0,0
66,62400,61941,5524,29792,31700,6506,61008,0,0
67,63360,56631,11779,39431,22231,2176,64222,0,0
68,64320,49165,19927,48467,13710,606,64594,0,0
69,65280,40217,29233,56084,6907,1937,62091,0,0
70,66240,30595,38857,61595,2437,6048,56938,0,0
71,67200,21166,47929,64502,702,12570,49600,0,0
72,68160,12783,55631,64542,1860,20912,40739,0,0
73,69120,6202,61268,61712,5806,30324,31156,0,0
74,70080,2017,64330,56267,12184,39953,21715,0,0
75,71040,607,64541,48699,20418,48933,13269,0,0
76,72000,2097,61882,39691,29766,56451,6580,0,0
77,72960,6355,56593,30055,39383,61829,2252,0,0
78,73920,12996,49151,20661,48402,64582,675,0,0
79,74880,21421,40228,12359,56008,64461,1993,0,0
80,75840,30868,30628,5896,61514,61476,6087,0,0
81,76800,40486,21220,1857,64423,55897,12586,0,0
82,77760,49405,12851,606,64473,48228,20905,0,0
83,78720,56822,6278,2257,61659,39161,30292,0,0
84,79680,62066,2094,6660,56235,29513,39901,0,0
85,80640,64664,677,13418,48691,20157,48864,0,0
86,81600,64380,2155,21922,39706,11937,56371,0,0
87,82560,61242,6394,31403,30093,5594,61745,0,0
88,83520,55531,13012,41005,20719,1702,64502,0,0
89,84480,47764,21412,49863,12430,611,64390,0,0
90,85440,38640,30835,57176,5974,2422,61422,0,0
91,86400,28985,40432,62284,1935,6969,55864,0,0
92,87360,19669,49335,64725,677,13843,48218,0,0
93,88320,11533,56741,64280,2314,22424,39175,0,0
94,89280,5313,61981,60989,6698,31936,29550,0,0
95,90240,1569,64583,55148,13434,41522,20212,0,0
96,91200,639,64310,47284,21913,50315,12005,0,0
97,92160,2608,61189,38108,31371,57523,5668,0,0
98,93120,7299,55499,28447,40953,62494,1776,0,0
99,94080,14287,47756,19174,49795,64779,677,0,0
100,95040,22942,38657,11126,57098,64172,2473,0,0
101,96000,32482,29024,5029,62203,60728,7002,0,0
102,96960,42048,19726,1434,64650,54758,13853,0,0
103,97920,50774,11604,666,64216,46800,22410,0,0
104,98880,57874,5389,2794,60942,37572,31899,0,0
105,99840,62706,1644,7625,55122,27908,41465,0,0
106,100800,64834,706,14725,47282,18680,50243,0,0
107,101760,64065,2661,23452,38129,10721,57442,0,0
108,102720,60470,7331,33018,28490,4750,62411,0,0
109,103680,54372,14296,42560,19235,1305,64701,0,0
110,104640,46322,22927,51217,11199,698,64106,0,0
111,105600,37047,32444,58207,5107,2984,60680,0,0
112,106560,27383,41989,62898,1511,7956,54731,0,0
113,107520,18203,50701,64868,733,15166,46797,0,0
114,108480,10336,57792,63939,2846,23963,37593,0,0
115,109440,4492,62622,60193,7658,33553,27950,0,0
116,110400,1198,64756,53970,14734,43070,18739,0,0
117,111360,753,64000,45830,23437,51655,10791,0,0
118,112320,3196,60423,36509,32981,58533,4824,0,0
119,113280,8307,54347,26848,42504,63084,1377,0,0
120,114240,15625,46321,17719,51147,64895,760,0,0
121,115200,24489,37069,9946,58128,63804,3030,0,0
122,116160,34099,27427,4231,62819,59909,7982,0,0
123,117120,43588,18264,1090,64796,53562,15169,0,0
124,118080,52098,10408,807,63879,45334,23943,0,0
125,119040,58863,4568,3406,60152,35970,33510,0,0
126,120000,63270,1272,8655,53951,26314,43008,0,0
127,120960,64923,816,16078,45835,17238,51580,0,0
128,121920,63671,3243,25007,36537,9561,58451,0,0
129,122880,59628,8333,34634,26897,3976,63002,0,0
130,123840,53158,15628,44092,17784,988,64820,0,0
131,124800,44845,24467,52526,10021,866,63743,0,0
132,125760,35441,34055,59174,4309,3622,59867,0,0
133,126720,25793,43525,63438,1164,9007,53541,0,0
134,127680,16772,52022,64930,870,16535,45338,0,0
135,128640,9194,58780,63518,3453,25526,35996,0,0
136,129600,3741,63188,59328,8681,35169,26360,0,0
137,130560,907,64848,52738,16081,44593,17299,0,0
138,131520,948,63610,44343,24986,52948,9632,0,0
139,132480,3859,59586,34900,34592,59479,4050,0,0
140,133440,9378,53139,25263,44031,63597,1057,0,0
141,134400,17008,44851,16301,52453,64930,924,0,0
142,135360,26058,35469,8824,59096,63357,3663,0,0
143,136320,35714,25842,3505,63360,59021,9027,0,0
144,137280,45102,16837,826,64861,52312,16531,0,0
145,138240,53375,9267,1028,63463,43836,25499,0,0
146,139200,59787,3817,4094,59292,34358,35121,0,0
147,140160,63758,978,9746,52725,24734,44528,0,0
148,141120,64931,1006,17475,44354,15833,52871,0,0
149,142080,63198,3900,26583,34934,8457,59397,0,0
150,143040,58717,9398,36248,25316,3274,63517,0,0
151,144000,51891,17003,45596,16369,750,64859,0,0
152,144960,43337,26031,53786,8900,1115,63301,0,0
153,145920,33827,35664,60076,3582,4334,58984,0,0
154,146880,24219,45035,63900,897,10118,52298,0,0
155,147840,15381,53297,64911,1087,17945,43846,0,0
156,148800,8110,59704,63019,4135,27108,34390,0,0
157,149760,3064,63678,58394,9766,36780,24785,0,0
158,150720,697,64860,51454,17471,46087,15897,0,0
159,151680,1223,63142,42824,26556,54191,8529,0,0
160,152640,4596,58681,33285,36200,60359,3347,0,0
161,153600,10510,51879,23696,45532,64034,817,0,0
162,154560,18432,43349,14924,53711,64884,1168,0,0
163,155520,27647,33861,7760,59998,62833,4370,0,0
164,156480,37323,24272,2852,63824,58065,10132,0,0
165,157440,46586,15448,642,64846,51011,17935,0,0
166,158400,54601,8184,1331,62970,42308,27075,0,0
167,159360,60644,3138,4855,58365,32741,36727,0,0
168,160320,64169,764,10897,51448,23173,46019,0,0
169,161280,64858,1277,18912,42842,14469,54113,0,0
170,162240,62648,4630,28176,33324,7415,60277,0,0
171,163200,57739,10522,37853,23753,2646,63956,0,0
172,164160,50574,18420,47070,14994,594,64817,0,0
173,165120,41800,27612,54994,7837,1444,62782,0,0
174,166080,32209,37268,60910,2928,5119,58035,0,0
175,167040,22665,46515,64284,710,11288,51004,0,0
176,168000,14032,54521,64811,1385,19395,42324,0,0
177,168960,7088,60561,62443,4890,28706,32778,0,0
178,169920,2460,64090,57395,10910,38383,23228,0,0
179,170880,567,64790,50121,18902,47550,14536,0,0
180,171840,1578,62597,41279,28143,55381,7487,0,0
181,172800,5404,57710,31666,37801,61169,2717,0,0
182,173760,11698,50568,22150,47003,64391,657,0,0
183,174720,19893,41818,13590,54918,64757,1492,0,0
184,175680,29249,32248,6759,60832,62232,5148,0,0
185,176640,38921,22722,2274,64211,57045,11295,0,0
186,177600,48037,14101,539,64750,49664,19378,0,0
187,178560,55773,7162,1712,62400,40755,28668,0,0
188,179520,61431,2533,5687,57373,31122,38325,0,0
189,180480,64500,630,12104,50122,21635,47478,0,0
190,181440,64703,1627,20385,41303,13151,55302,0,0
191,182400,62021,5432,29782,31710,6435,61088,0,0
192,183360,56697,11704,39448,22211,2093,64316,0,0
193,184320,49211,19875,48509,13662,518,64694,0,0
194,185280,40239,29208,56147,6836,1852,62187,0,0
195,186240,30590,38861,61673,2348,5974,57021,0,0
196,187200,21136,47963,64588,604,12513,49663,0,0
197,188160,12729,55691,64629,1762,20879,40777,0,0
198,189120,6130,61348,61792,5716,30316,31165,0,0
199,190080,1933,64423,56333,12111,39972,21694,0,0
200,191040,518,64639,48744,20368,48976,13220,0,0
201,192000,2013,61976,39711,29744,56515,6507,0,0
202,192960,6282,56674,30048,39391,61909,2162,0,0
203,193920,12941,49212,20629,48438,64669,577,0,0
204,194880,21388,40262,12303,56070,64548,1895,0,0
205,195840,30861,30634,5823,61596,61556,5997,0,0
206,196800,40506,21196,1772,64518,55962,12514,0,0
207,197760,49450,12800,518,64573,48272,20856,0,0
208,198720,56887,6204,2173,61754,39180,30272,0,0
209,199680,62146,2003,6588,56316,29506,39910,0,0
210,200640,64751,578,13364,48751,20124,48902,0,0
211,201600,64467,2056,21891,39740,11881,56435,0,0
212,202560,61321,6304,31398,30098,5520,61829,0,0
213,203520,55594,12940,41027,20694,1617,64597,0,0
214,204480,47806,21364,49909,12378,523,64490,0,0
215,205440,38658,30815,57242,5900,2338,61516,0,0
216,206400,28976,40442,62364,1845,6898,55944,0,0
217,207360,19634,49374,64813,579,13791,48278,0,0
218,208320,11476,56805,64367,2217,22395,39208,0,0
219,209280,5238,62065,61067,6611,31933,29553,0,0
220,210240,1483,64678,55210,13364,41545,20186,0,0
221,211200,551,64409,47325,21868,50363,11951,0,0
222,212160,2525,61281,38123,31354,57590,5593,0,0
223,213120,7228,55578,28436,40966,62575,1684,0,0
224,214080,14235,47813,19138,49836,64867,579,0,0
225,215040,22914,38687,11067,57164,64259,2376,0,0
226,216000,32480,29025,4953,62289,60806,6915,0,0
227,216960,42072,19698,1349,64746,54819,13785,0,0
228,217920,50823,11548,578,64315,46839,22366,0,0
229,218880,57942,5311,2711,61035,37587,31884,0,0
230,219840,62788,1551,7556,55200,27896,41479,0,0
231,220800,64922,606,14674,47338,18643,50286,0,0
232,221760,64152,2563,23425,38159,10662,57509,0,0
233,222720,60547,7244,33017,28491,4674,62497,0,0
234,223680,54433,14228,42586,19206,1219,64798,0,0
235,224640,46361,22883,51267,11143,610,64206,0,0
236,225600,37060,32429,58276,5030,2902,60772,0,0
237,226560,27369,42004,62980,1418,7888,54808,0,0
238,227520,18164,50744,64956,634,15117,46852,0,0
239,228480,10276,57859,64024,2750,23938,37621,0,0
240,229440,4415,62708,60269,7573,33554,27949,0,0
241,230400,1112,64852,54029,14668,43097,18708,0,0
242,231360,665,64098,45867,23396,51706,10734,0,0
243,232320,3115,60513,36521,32969,58603,4746,0,0
244,233280,8239,54422,26833,42521,63166,1284,0,0
245,234240,15577,46374,17679,51192,64983,662,0,0
246,235200,24465,37095,9885,58198,63890,2935,0,0
247,236160,34102,27423,4154,62907,59984,7898,0,0
248,237120,43616,18231,1004,64893,53620,15105,0,0
249,238080,52151,10348,719,63978,45370,23903,0,0
250,239040,58934,4487,3326,60243,35980,33499,0,0
251,240000,63354,1177,8588,54026,26298,43028,0,0
252,240960,65011,716,16032,45887,17196,51627,0,0
253,241920,63756,3147,24985,36562,9498,58522,0,0
254,242880,59702,8249,34638,26892,3898,63090,0,0
255,243840,53215,15563,44122,17750,901,64918,0,0
256,244800,44880,24428,52579,9961,779,63842,0,0
257,245760,35450,34045,59246,4229,3542,59957,0,0
258,246720,25775,43545,63521,1070,8941,53615,0,0
259,247680,16730,52070,65018,771,16489,45389,0,0
260,248640,9130,58851,63603,3358,25505,36020,0,0
261,249600,3663,63276,59401,8599,35174,26354,0,0
262,250560,821,64945,52793,16019,44624,17264,0,0
263,251520,861,63707,44375,24950,53003,9570,0,0
264,252480,3780,59675,34908,34584,59552,3968,0,0
265,253440,9314,53211,25244,44054,63682,962,0,0
266,254400,16964,44899,16258,52503,65018,825,0,0
267,255360,26039,35490,8759,59169,63442,3569,0,0
268,256320,35721,25833,3426,63450,59094,8945,0,0
269,257280,45135,16799,739,64960,52366,16470,0,0
270,258240,53431,9204,942,63561,43868,25464,0,0
271,259200,59861,3733,4015,59381,34364,35115,0,0
272,260160,63843,882,9683,52797,24714,44552,0,0
273,261120,65019,906,17432,44402,15788,52922,0,0
274,262080,63282,3805,26565,34954,8392,59472,0,0
275,263040,58789,9316,36256,25307,3194,63608,0,0
276,264000,51944,16943,45631,16331,663,64958,0,0
277,264960,43367,25996,53842,8836,1028,63399,0,0
278,265920,33831,35659,60150,3499,4256,59072,0,0
279,266880,24197,45060,63985,802,10056,52369,0,0
280,267840,15335,53349,64999,989,17904,43892,0,0
281,268800,8044,59778,63102,4042,27092,34409,0,0
282,269760,2983,63768,58465,9687,36790,24774,0,0
283,270720,609,64957,51506,17413,46123,15857,0,0
284,271680,1137,63239,42853,26524,54249,8464,0,0
285,272640,4518,58767,33287,36198,60434,3262,0,0
286,273600,10448,51947,23673,45560,64119,721,0,0
287,274560,18391,43393,14876,53765,64972,1069,0,0
288,275520,27631,33877,7693,60074,62916,4277,0,0
289,276480,37334,24258,2771,63916,58135,10054,0,0
290,277440,46623,15405,555,64945,51063,17879,0,0
291,278400,54660,8117,1245,63067,42336,27045,0,0
292,279360,60719,3052,4778,58451,32743,36726,0,0
293,280320,64254,667,10837,51516,23149,46048,0,0
294,281280,64945,1178,18873,42885,14421,54168,0,0
295,282240,62730,4538,28163,33339,7346,60354,0,0
296,283200,57808,10445,37866,23739,2564,64048,0,0
297,284160,50624,18365,47108,14951,506,64916,0,0
298,285120,41826,27583,55054,7769,1358,62878,0,0
299,286080,32208,37268,60986,2842,5043,58120,0,0
300,287040,22639,46545,64370,614,11229,51071,0,0
301,288000,13982,54577,64899,1286,19357,42366,0,0
302,288960,7019,60639,62525,4799,28694,32792,0,0
303,289920,2378,64182,57463,10834,38397,23212,0,0
304,290880,479,64888,50170,18848,47590,14492,0,0
305,291840,1493,62693,41303,28116,55443,7418,0,0
306,292800,5329,57794,31664,37803,61247,2630,0,0
307,293760,11640,50633,22122,47034,64478,560,0,0
308,294720,19857,41858,13539,54976,64844,1394,0,0
309,295680,29238,32259,6689,60911,62313,5057,0,0
310,296640,38937,22704,2191,64304,57112,11220,0,0
311,297600,48077,14055,452,64849,49711,19325,0,0
312,298560,55834,7092,1627,62495,40778,28642,0,0
313,299520,61508,2445,5612,57456,31119,38329,0,0
314,300480,64586,533,12047,50186,21607,47511,0,0
315,301440,64790,1529,20350,41342,13099,55361,0,0
316,302400,62102,5342,29773,31721,6364,61168,0,0
317,303360,56763,11630,39465,22192,2010,64410,0,0
318,304320,49257,19824,48550,13615,430,64792,0,0
319,305280,40261,29184,56210,6765,1768,62281,0,0
320,306240,30585,38867,61751,2260,5901,57103,0,0
321,307200,21105,47997,64675,507,12458,49726,0,0
322,308160,12676,55752,64716,1664,20846,40814,0,0
323,309120,6058,61429,61872,5627,30308,31173,0,0
324,310080,1849,64518,56398,12038,39991,21673,0,0
325,311040,430,64738,48789,20319,49020,13171,0,0
326,312000,1929,62071,39731,29722,56580,6435,0,0
327,312960,6209,56756,30042,39398,61988,2073,0,0
328,313920,12886,49273,20597,48475,64756,480,0,0
329,314880,21356,40298,12249,56132,64635,1798,0,0
330,315840,30855,30641,5750,61678,61635,5909,0,0
331,316800,40525,21173,1689,64613,56026,12442,0,0
332,317760,49494,12749,430,64671,48315,20808,0,0
333,318720,56952,6131,2089,61848,39199,30251,0,0
334,319680,62225,1914,6516,56397,29499,39919,0,0
335,320640,64838,480,13311,48811,20091,48940,0,0
336,321600,64554,1959,21860,39774,11825,56498,0,0
337,322560,61399,6217,31393,30103,5447,61912,0,0
338,323520,55657,12870,41048,20670,1533,64692,0,0
339,324480,47848,21317,49954,12326,436,64588,0,0
340,325440,38675,30796,57308,5825,2256,61609,0,0
341,326400,28966,40452,62444,1754,6827,56024,0,0
342,327360,19599,49413,64900,481,13739,48336,0,0
343,328320,11419,56869,64453,2120,22366,39240,0,0
344,329280,5164,62148,61144,6524,31930,29557,0,0
345,330240,1398,64773,55272,13295,41568,20160,0,0
346,331200,463,64507,47366,21822,50410,11898,0,0
347,332160,2443,61374,38139,31336,57657,5517,0,0
348,333120,7158,55656,28426,40978,62656,1593,0,0
349,334080,14183,47870,19102,49877,64954,481,0,0
350,335040,22885,38718,11009,57230,64345,2280,0,0
351,336000,32478,29026,4879,62373,60883,6829,0,0
352,336960,42096,19670,1264,64842,54880,13717,0,0
353,337920,50870,11494,490,64413,46879,22322,0,0
354,338880,58009,5235,2629,61126,37602,31868,0,0
355,339840,62868,1460,7486,55277,27885,41493,0,0
356,340800,65009,508,14624,47394,18606,50328,0,0
357,341760,64237,2467,23399,38188,10603,57576,0,0
358,342720,60623,7159,33017,28490,4599,62582,0,0
359,343680,54492,14160,42612,19176,1135,64894,0,0
360,344640,46399,22840,51316,11087,524,64304,0,0
361,345600,37073,32415,58344,4952,2821,60864,0,0
362,346560,27356,42019,63062,1326,7820,54885,0,0
363,347520,18126,50787,65044,536,15069,46906,0,0
364,348480,10215,57927,64110,2653,23913,37648,0,0
365,349440,4338,62794,60344,7488,33555,27947,0,0
366,350400,1026,64948,54088,14602,43124,18677,0,0
367,351360,578,64196,45904,23355,51757,10676,0,0
368,352320,3034,60604,36533,32956,58673,4667,0,0
369,353280,8172,54498,26819,42538,63249,1191,0,0
370,354240,15529,46427,17640,51237,65071,563,0,0
371,355200,24441,37121,9824,58267,63975,2839,0,0
372,356160,34104,27419,4077,62993,60059,7814,0,0
373,357120,43644,18198,918,64990,53678,15040,0,0
374,358080,52202,10290,632,64075,45406,23863,0,0
375,359040,59004,4408,3245,60333,35991,33488,0,0
376,360000,63436,1084,8522,54100,26282,43046,0,0
377,360960,65098,617,15986,45939,17156,51674,0,0
378,361920,63840,3051,24962,36586,9436,58592,0,0
379,362880,59776,8166,34642,26887,3821,63178,0,0
380,363840,53271,15500,44152,17716,815,65015,0,0
381,364800,44914,24390,52632,9901,692,63939,0,0
382,365760,35458,34036,59317,4148,3463,60046,0,0
383,366720,25757,43565,63604,976,8876,53688,0,0
384,367680,16687,52118,65106,672,16445,45439,0,0
385,368640,9067,58922,63687,3264,25484,36042,0,0
386,369600,3584,63364,59474,8516,35180,26347,0,0
387,370560,734,65042,52849,15957,44656,17228,0,0
388,371520,774,63805,44408,24913,53057,9509,0,0
389,372480,3700,59764,34915,34577,59624,3887,0,0
390,373440,9249,53283,25225,44075,63765,868,0,0
391,374400,16920,44948,16214,52552,65106,726,0,0
392,375360,26019,35512,8695,59241,63526,3474,0,0
393,376320,35727,25825,3347,63539,59166,8864,0,0
394,377280,45167,16762,653,65057,52421,16410,0,0
395,378240,53485,9141,855,63658,43899,25429,0,0
396,379200,59933,3651,3937,59469,34370,35109,0,0
397,380160,63926,788,9620,52867,24693,44575,0,0
398,381120,65106,808,17390,44449,15743,52973,0,0
399,382080,63364,3712,26547,34973,8327,59545,0,0
